Sample in Buffer,Sample in Window,TRIGGER,design_1_i/addrmonitor_0_state[2:0],design_1_i/addrmonitor_0_physicaladdr[31:0],design_1_i/addrmonitor_0_pmem_obj_offset[63:0],design_1_i/addrmonitor_0_virtualaddr_out[63:0],design_1_i/addrmonitor_0_count[5:0],design_1_i/xdma_0_axi_aresetn,design_1_i/addrmonitor_0_pmem_obj_offset_valid,design_1_i/addrmonitor_0_offset_count[3:0]
0,0,0,1,88082000,00007f299917e000,0000000000000000,20,1,0,d
1,1,0,1,88082000,00007f299917e000,0000000000000000,20,1,0,e
2,2,0,1,88082000,00007f299917e000,0000000000000000,20,1,0,f
3,3,0,1,88082000,00007f299917e000,0000000000000000,20,1,0,0
4,4,0,1,88082000,00007f299917e000,00007fbebdb7f000,20,1,0,1
5,5,0,1,88082000,00007f299917e000,00007fbebd97e000,20,1,0,2
6,6,0,1,88082000,00007f299917e000,0000000000000000,20,1,0,3
7,7,0,1,88082000,00007f299917e000,0000000000000000,20,1,0,4
8,8,0,1,88082000,00007f299917e000,0000000000000000,20,1,0,5
9,9,0,1,88082000,00007f299917e000,0000000000000000,20,1,0,6
10,10,0,1,88082000,00007f299917e000,0000000000000000,20,1,0,7
11,11,0,1,88082000,00007f299917e000,0000000000000000,20,1,0,8
12,12,0,1,88082000,00007f299917e000,0000000000000000,20,1,0,9
13,13,0,1,88082000,00007f299917e000,0000000000000000,20,1,0,a
14,14,0,1,88082000,00007f299917e000,0000000000000000,20,1,0,b
15,15,0,1,88082000,00007f299917e000,0000000000000000,20,1,0,c
16,16,0,1,88082000,00007f299917e000,0000000000000000,20,1,0,d
17,17,0,1,88082000,00007f299917e000,0000000000000000,20,1,0,e
18,18,0,1,88082000,00007f299917e000,0000000000000000,20,1,0,f
19,19,0,1,88082000,00007f299917e000,0000000000000000,20,1,0,0
20,20,0,1,88082000,00007f299917e000,00007fbebdb7f000,20,1,0,1
21,21,0,1,88082000,00007f299917e000,00007fbebd97e000,20,1,0,2
22,22,0,1,88082000,00007f299917e000,0000000000000000,20,1,0,3
23,23,0,1,88082000,00007f299917e000,0000000000000000,20,1,0,4
24,24,0,1,88082000,00007f299917e000,0000000000000000,20,1,0,5
25,25,0,1,88082000,00007f299917e000,0000000000000000,20,1,0,6
26,26,0,1,88082000,00007f299917e000,0000000000000000,20,1,0,7
27,27,0,1,88082000,00007f299917e000,0000000000000000,20,1,0,8
28,28,0,1,88082000,00007f299917e000,0000000000000000,20,1,0,9
29,29,0,1,88082000,00007f299917e000,0000000000000000,20,1,0,a
30,30,0,1,88082000,00007f299917e000,0000000000000000,20,1,0,b
31,31,0,1,88082000,00007f299917e000,0000000000000000,20,1,0,c
32,32,0,1,88082000,00007f299917e000,0000000000000000,20,1,0,d
33,33,0,1,88082000,00007f299917e000,0000000000000000,20,1,0,e
34,34,0,1,88082000,00007f299917e000,0000000000000000,20,1,0,f
35,35,0,1,88082000,00007f299917e000,0000000000000000,20,1,0,0
36,36,0,1,88082000,00007f299917e000,00007fbebdb7f000,20,1,0,1
37,37,0,1,88082000,00007f299917e000,00007fbebd97e000,20,1,0,2
38,38,0,1,88082000,00007f299917e000,0000000000000000,20,1,0,3
39,39,0,1,88082000,00007f299917e000,0000000000000000,20,1,0,4
40,40,0,1,88082000,00007f299917e000,0000000000000000,20,1,0,5
41,41,0,1,88082000,00007f299917e000,0000000000000000,20,1,0,6
42,42,0,1,88082000,00007f299917e000,0000000000000000,20,1,0,7
43,43,0,1,88082000,00007f299917e000,0000000000000000,20,1,0,8
44,44,0,1,88082000,00007f299917e000,0000000000000000,20,1,0,9
45,45,0,1,88082000,00007f299917e000,0000000000000000,20,1,0,a
46,46,0,1,88082000,00007f299917e000,0000000000000000,20,1,0,b
47,47,0,1,88082000,00007f299917e000,0000000000000000,20,1,0,c
48,48,0,1,88082000,00007f299917e000,0000000000000000,20,1,0,d
49,49,0,1,88082000,00007f299917e000,0000000000000000,20,1,0,e
50,50,0,1,88082000,00007f299917e000,0000000000000000,20,1,0,f
51,51,0,1,88082000,00007f299917e000,0000000000000000,20,1,0,0
52,52,0,1,88082000,00007f299917e000,00007fbebdb7f000,20,1,0,1
53,53,0,1,88082000,00007f299917e000,00007fbebd97e000,20,1,0,2
54,54,0,1,88082000,00007f299917e000,0000000000000000,20,1,0,3
55,55,0,1,88082000,00007f299917e000,0000000000000000,20,1,0,4
56,56,0,1,88082000,00007f299917e000,0000000000000000,20,1,0,5
57,57,0,1,88082000,00007f299917e000,0000000000000000,20,1,0,6
58,58,0,1,88082000,00007f299917e000,0000000000000000,20,1,0,7
59,59,0,1,88082000,00007f299917e000,0000000000000000,20,1,0,8
60,60,0,1,88082000,00007f299917e000,0000000000000000,20,1,0,9
61,61,0,1,88082000,00007f299917e000,0000000000000000,20,1,0,a
62,62,0,1,88082000,00007f299917e000,0000000000000000,20,1,0,b
63,63,0,1,88082000,00007f299917e000,0000000000000000,20,1,0,c
64,64,0,1,88082000,00007f299917e000,0000000000000000,20,1,0,d
65,65,0,1,88082000,00007f299917e000,0000000000000000,20,1,0,e
66,66,0,1,88082000,00007f299917e000,0000000000000000,20,1,0,f
67,67,0,1,88082000,00007f299917e000,0000000000000000,20,1,0,0
68,68,0,1,88082000,00007f299917e000,00007fbebdb7f000,20,1,0,1
69,69,0,1,88082000,00007f299917e000,00007fbebd97e000,20,1,0,2
70,70,0,1,88082000,00007f299917e000,0000000000000000,20,1,0,3
71,71,0,1,88082000,00007f299917e000,0000000000000000,20,1,0,4
72,72,0,1,88082000,00007f299917e000,0000000000000000,20,1,0,5
73,73,0,1,88082000,00007f299917e000,0000000000000000,20,1,0,6
74,74,0,1,88082000,00007f299917e000,0000000000000000,20,1,0,7
75,75,0,1,88082000,00007f299917e000,0000000000000000,20,1,0,8
76,76,0,1,88082000,00007f299917e000,0000000000000000,20,1,0,9
77,77,0,1,88082000,00007f299917e000,0000000000000000,20,1,0,a
78,78,0,1,88082000,00007f299917e000,0000000000000000,20,1,0,b
79,79,0,1,88082000,00007f299917e000,0000000000000000,20,1,0,c
80,80,0,1,88082000,00007f299917e000,0000000000000000,20,1,0,d
81,81,0,1,88082000,00007f299917e000,0000000000000000,20,1,0,e
82,82,0,1,88082000,00007f299917e000,0000000000000000,20,1,0,f
83,83,0,1,88082000,00007f299917e000,0000000000000000,20,1,0,0
84,84,0,1,88082000,00007f299917e000,00007fbebdb7f000,20,1,0,1
85,85,0,1,88082000,00007f299917e000,00007fbebd97e000,20,1,0,2
86,86,0,1,88082000,00007f299917e000,0000000000000000,20,1,0,3
87,87,0,1,88082000,00007f299917e000,0000000000000000,20,1,0,4
88,88,0,1,88082000,00007f299917e000,0000000000000000,20,1,0,5
89,89,0,1,88082000,00007f299917e000,0000000000000000,20,1,0,6
90,90,0,1,88082000,00007f299917e000,0000000000000000,20,1,0,7
91,91,0,1,88082000,00007f299917e000,0000000000000000,20,1,0,8
92,92,0,1,88082000,00007f299917e000,0000000000000000,20,1,0,9
93,93,0,1,88082000,00007f299917e000,0000000000000000,20,1,0,a
94,94,0,1,88082000,00007f299917e000,0000000000000000,20,1,0,b
95,95,0,1,88082000,00007f299917e000,0000000000000000,20,1,0,c
96,96,0,1,88082000,00007f299917e000,0000000000000000,20,1,0,d
97,97,0,1,88082000,00007f299917e000,0000000000000000,20,1,0,e
98,98,0,1,88082000,00007f299917e000,0000000000000000,20,1,0,f
99,99,0,1,88082000,00007f299917e000,0000000000000000,20,1,0,0
100,100,0,1,88082000,00007f299917e000,00007fbebdb7f000,20,1,0,1
101,101,0,1,88082000,00007f299917e000,00007fbebd97e000,20,1,0,2
102,102,0,1,88082000,00007f299917e000,0000000000000000,20,1,0,3
103,103,0,1,88082000,00007f299917e000,0000000000000000,20,1,0,4
104,104,0,1,88082000,00007f299917e000,0000000000000000,20,1,0,5
105,105,0,1,88082000,00007f299917e000,0000000000000000,20,1,0,6
106,106,0,1,88082000,00007f299917e000,0000000000000000,20,1,0,7
107,107,0,1,88082000,00007f299917e000,0000000000000000,20,1,0,8
108,108,0,1,88082000,00007f299917e000,0000000000000000,20,1,0,9
109,109,0,1,88082000,00007f299917e000,0000000000000000,20,1,0,a
110,110,1,1,88082000,00007fbeb9b7f000,0000000000000000,20,1,1,b
111,111,0,1,88082000,00007fbebdb7f000,0000000000000000,20,1,0,c
112,112,0,1,88082000,00007fbebd97e000,0000000000000000,20,1,1,d
113,113,0,1,88082000,00007fbebd97e000,0000000000000000,20,1,0,e
114,114,0,1,88082000,00007fbebd97e000,0000000000000000,20,1,0,f
115,115,0,1,88082000,00007fbebd97e000,0000000000000000,20,1,0,0
116,116,0,1,88082000,00007fbebd97e000,00007fbebdb7f000,20,1,0,1
117,117,0,1,88082000,00007fbebd97e000,00007fbebd97e000,20,1,0,2
118,118,0,1,88082000,00007fbebd97e000,0000000000000000,20,1,0,3
119,119,0,1,88082000,00007fbebd97e000,0000000000000000,20,1,0,4
120,120,0,1,88082000,00007fbebd97e000,0000000000000000,20,1,0,5
121,121,0,1,88082000,00007fbebd97e000,0000000000000000,20,1,0,6
122,122,0,1,88082000,00007fbebd97e000,0000000000000000,20,1,0,7
123,123,0,1,88082000,00007fbebd97e000,0000000000000000,20,1,0,8
124,124,0,1,88082000,00007fbebd97e000,0000000000000000,20,1,0,9
125,125,0,1,88082000,00007fbebd97e000,0000000000000000,20,1,0,a
126,126,0,1,88082000,00007fbebd97e000,0000000000000000,20,1,0,b
127,127,0,1,88082000,00007fbebd97e000,0000000000000000,20,1,0,c
128,128,0,1,88082000,00007fbebd97e000,0000000000000000,20,1,0,d
129,129,0,1,88082000,00007fbebd97e000,0000000000000000,20,1,0,e
130,130,0,1,88082000,00007fbebd97e000,0000000000000000,20,1,0,f
131,131,0,1,88082000,00007fbebd97e000,0000000000000000,20,1,0,0
132,132,0,1,88082000,00007fbebd97e000,00007fbebdb7f000,20,1,0,1
133,133,0,1,88082000,00007fbebd97e000,00007fbebd97e000,20,1,0,2
134,134,0,1,88082000,00007fbebd97e000,0000000000000000,20,1,0,3
135,135,0,1,88082000,00007fbebd97e000,0000000000000000,20,1,0,4
136,136,0,1,88082000,00007fbebd97e000,0000000000000000,20,1,0,5
137,137,0,1,88082000,00007fbebd97e000,0000000000000000,20,1,0,6
138,138,0,1,88082000,00007fbebd97e000,0000000000000000,20,1,0,7
139,139,0,1,88082000,00007fbebd97e000,0000000000000000,20,1,0,8
140,140,0,1,88082000,00007fbebd97e000,0000000000000000,20,1,0,9
141,141,0,1,88082000,00007fbebd97e000,0000000000000000,20,1,0,a
142,142,0,1,88082000,00007fbebd97e000,0000000000000000,20,1,0,b
143,143,0,1,88082000,00007fbebd97e000,0000000000000000,20,1,0,c
144,144,0,1,88082000,00007fbebd97e000,0000000000000000,20,1,0,d
145,145,0,1,88082000,00007fbebd97e000,0000000000000000,20,1,0,e
146,146,0,1,88082000,00007fbebd97e000,0000000000000000,20,1,0,f
147,147,0,1,88082000,00007fbebd97e000,0000000000000000,20,1,0,0
148,148,0,1,88082000,00007fbebd97e000,00007fbebdb7f000,20,1,0,1
149,149,0,1,88082000,00007fbebd97e000,00007fbebd97e000,20,1,0,2
150,150,0,1,88082000,00007fbebd97e000,0000000000000000,20,1,0,3
151,151,0,1,88082000,00007fbebd97e000,0000000000000000,20,1,0,4
152,152,0,1,88082000,00007fbebd97e000,0000000000000000,20,1,0,5
153,153,0,1,88082000,00007fbebd97e000,0000000000000000,20,1,0,6
154,154,0,1,88082000,00007fbebd97e000,0000000000000000,20,1,0,7
155,155,0,1,88082000,00007fbebd97e000,0000000000000000,20,1,0,8
156,156,0,1,88082000,00007fbebd97e000,0000000000000000,20,1,0,9
157,157,0,1,88082000,00007fbebd97e000,0000000000000000,20,1,0,a
158,158,0,1,88082000,00007fbebd97e000,0000000000000000,20,1,0,b
159,159,0,1,88082000,00007fbebd97e000,0000000000000000,20,1,0,c
160,160,0,1,88082000,00007fbebd97e000,0000000000000000,20,1,0,d
161,161,0,1,88082000,00007fbebd97e000,0000000000000000,20,1,0,e
162,162,0,1,88082000,00007fbebd97e000,0000000000000000,20,1,0,f
163,163,0,1,88082000,00007fbebd97e000,0000000000000000,20,1,0,0
164,164,0,1,88082000,00007fbebd97e000,00007fbebdb7f000,20,1,0,1
165,165,0,1,88082000,00007fbebd97e000,00007fbebd97e000,20,1,0,2
166,166,0,1,88082000,00007fbebd97e000,0000000000000000,20,1,0,3
167,167,0,1,88082000,00007fbebd97e000,0000000000000000,20,1,0,4
168,168,0,1,88082000,00007fbebd97e000,0000000000000000,20,1,0,5
169,169,0,1,88082000,00007fbebd97e000,0000000000000000,20,1,0,6
170,170,0,1,88082000,00007fbebd97e000,0000000000000000,20,1,0,7
171,171,0,1,88082000,00007fbebd97e000,0000000000000000,20,1,0,8
172,172,0,1,88082000,00007fbebd97e000,0000000000000000,20,1,0,9
173,173,0,1,88082000,00007fbebd97e000,0000000000000000,20,1,0,a
174,174,0,1,88082000,00007fbebd97e000,0000000000000000,20,1,0,b
175,175,0,1,88082000,00007fbebd97e000,0000000000000000,20,1,0,c
176,176,0,1,88082000,00007fbebd97e000,0000000000000000,20,1,0,d
177,177,0,1,88082000,00007fbebd97e000,0000000000000000,20,1,0,e
178,178,0,1,88082000,00007fbebd97e000,0000000000000000,20,1,0,f
179,179,0,1,88082000,00007fbebd97e000,0000000000000000,20,1,0,0
180,180,0,1,88082000,00007fbebd97e000,00007fbebdb7f000,20,1,0,1
181,181,0,1,88082000,00007fbebd97e000,00007fbebd97e000,20,1,0,2
182,182,0,1,88082000,00007fbebd97e000,0000000000000000,20,1,0,3
183,183,0,1,88082000,00007fbebd97e000,0000000000000000,20,1,0,4
184,184,0,1,88082000,00007fbebd97e000,0000000000000000,20,1,0,5
185,185,0,1,88082000,00007fbebd97e000,0000000000000000,20,1,0,6
186,186,0,1,88082000,00007fbebd97e000,0000000000000000,20,1,0,7
187,187,0,1,88082000,00007fbebd97e000,0000000000000000,20,1,0,8
188,188,0,1,88082000,00007fbebd97e000,0000000000000000,20,1,0,9
189,189,0,1,88082000,00007fbebd97e000,0000000000000000,20,1,0,a
190,190,0,1,88082000,00007fbebd97e000,0000000000000000,20,1,0,b
191,191,0,1,88082000,00007fbebd97e000,0000000000000000,20,1,0,c
192,192,0,1,88082000,00007fbebd97e000,0000000000000000,20,1,0,d
193,193,0,1,88082000,00007fbebd97e000,0000000000000000,20,1,0,e
194,194,0,1,88082000,00007fbebd97e000,0000000000000000,20,1,0,f
195,195,0,1,88082000,00007fbebd97e000,0000000000000000,20,1,0,0
196,196,0,1,88082000,00007fbebd97e000,00007fbebdb7f000,20,1,0,1
197,197,0,1,88082000,00007fbebd97e000,00007fbebd97e000,20,1,0,2
198,198,0,1,88082000,00007fbebd97e000,0000000000000000,20,1,0,3
199,199,0,1,88082000,00007fbebd97e000,0000000000000000,20,1,0,4
200,200,0,1,88082000,00007fbebd97e000,0000000000000000,20,1,0,5
201,201,0,1,88082000,00007fbebd97e000,0000000000000000,20,1,0,6
202,202,0,1,88082000,00007fbebd97e000,0000000000000000,20,1,0,7
203,203,0,1,88082000,00007fbebd97e000,0000000000000000,20,1,0,8
204,204,0,1,88082000,00007fbebd97e000,0000000000000000,20,1,0,9
205,205,0,1,88082000,00007fbebd97e000,0000000000000000,20,1,0,a
206,206,0,1,88082000,00007fbebd97e000,0000000000000000,20,1,0,b
207,207,0,1,88082000,00007fbebd97e000,0000000000000000,20,1,0,c
208,208,0,1,88082000,00007fbebd97e000,0000000000000000,20,1,0,d
209,209,0,1,88082000,00007fbebd97e000,0000000000000000,20,1,0,e
210,210,0,1,88082000,00007fbebd97e000,0000000000000000,20,1,0,f
211,211,0,1,88082000,00007fbebd97e000,0000000000000000,20,1,0,0
212,212,0,1,88082000,00007fbebd97e000,00007fbebdb7f000,20,1,0,1
213,213,0,1,88082000,00007fbebd97e000,00007fbebd97e000,20,1,0,2
214,214,0,1,88082000,00007fbebd97e000,0000000000000000,20,1,0,3
215,215,0,1,88082000,00007fbebd97e000,0000000000000000,20,1,0,4
216,216,0,1,88082000,00007fbebd97e000,0000000000000000,20,1,0,5
217,217,0,1,88082000,00007fbebd97e000,0000000000000000,20,1,0,6
218,218,0,1,88082000,00007fbebd97e000,0000000000000000,20,1,0,7
219,219,0,1,88082000,00007fbebd97e000,0000000000000000,20,1,0,8
220,220,0,1,88082000,00007fbebd97e000,0000000000000000,20,1,0,9
221,221,0,1,88082000,00007fbebd97e000,0000000000000000,20,1,0,a
222,222,0,1,88082000,00007fbebd97e000,0000000000000000,20,1,0,b
223,223,0,1,88082000,00007fbebd97e000,0000000000000000,20,1,0,c
224,224,0,1,88082000,00007fbebd97e000,0000000000000000,20,1,0,d
225,225,0,1,88082000,00007fbebd97e000,0000000000000000,20,1,0,e
226,226,0,1,88082000,00007fbebd97e000,0000000000000000,20,1,0,f
227,227,0,1,88082000,00007fbebd97e000,0000000000000000,20,1,0,0
228,228,0,1,88082000,00007fbebd97e000,00007fbebdb7f000,20,1,0,1
229,229,0,1,88082000,00007fbebd97e000,00007fbebd97e000,20,1,0,2
230,230,0,1,88082000,00007fbebd97e000,0000000000000000,20,1,0,3
231,231,0,1,88082000,00007fbebd97e000,0000000000000000,20,1,0,4
232,232,0,1,88082000,00007fbebd97e000,0000000000000000,20,1,0,5
233,233,0,1,88082000,00007fbebd97e000,0000000000000000,20,1,0,6
234,234,0,1,88082000,00007fbebd97e000,0000000000000000,20,1,0,7
235,235,0,1,88082000,00007fbebd97e000,0000000000000000,20,1,0,8
236,236,0,1,88082000,00007fbebd97e000,0000000000000000,20,1,0,9
237,237,0,1,88082000,00007fbebd97e000,0000000000000000,20,1,0,a
238,238,0,1,88082000,00007fbebd97e000,0000000000000000,20,1,0,b
239,239,0,1,88082000,00007fbebd97e000,0000000000000000,20,1,0,c
240,240,0,1,88082000,00007fbebd97e000,0000000000000000,20,1,0,d
241,241,0,1,88082000,00007fbebd97e000,0000000000000000,20,1,0,e
242,242,0,1,88082000,00007fbebd97e000,0000000000000000,20,1,0,f
243,243,0,1,88082000,00007fbebd97e000,0000000000000000,20,1,0,0
244,244,0,1,88082000,00007fbebd97e000,00007fbebdb7f000,20,1,0,1
245,245,0,1,88082000,00007fbebd97e000,00007fbebd97e000,20,1,0,2
246,246,0,1,88082000,00007fbebd97e000,0000000000000000,20,1,0,3
247,247,0,1,88082000,00007fbebd97e000,0000000000000000,20,1,0,4
248,248,0,1,88082000,00007fbebd97e000,0000000000000000,20,1,0,5
249,249,0,1,88082000,00007fbebd97e000,0000000000000000,20,1,0,6
250,250,0,1,88082000,00007fbebd97e000,0000000000000000,20,1,0,7
251,251,0,1,88082000,00007fbebd97e000,0000000000000000,20,1,0,8
252,252,0,1,88082000,00007fbebd97e000,0000000000000000,20,1,0,9
253,253,0,1,88082000,00007fbebd97e000,0000000000000000,20,1,0,a
254,254,0,1,88082000,00007fbebd97e000,0000000000000000,20,1,0,b
255,255,0,1,88082000,00007fbebd97e000,0000000000000000,20,1,0,c
256,256,0,1,88082000,00007fbebd97e000,0000000000000000,20,1,0,d
257,257,0,1,88082000,00007fbebd97e000,0000000000000000,20,1,0,e
258,258,0,1,88082000,00007fbebd97e000,0000000000000000,20,1,0,f
259,259,0,1,88082000,00007fbebd97e000,0000000000000000,20,1,0,0
260,260,0,1,88082000,00007fbebd97e000,00007fbebdb7f000,20,1,0,1
261,261,0,1,88082000,00007fbebd97e000,00007fbebd97e000,20,1,0,2
262,262,0,1,88082000,00007fbebd97e000,0000000000000000,20,1,0,3
263,263,0,1,88082000,00007fbebd97e000,0000000000000000,20,1,0,4
264,264,0,1,88082000,00007fbebd97e000,0000000000000000,20,1,0,5
265,265,0,1,88082000,00007fbebd97e000,0000000000000000,20,1,0,6
266,266,0,1,88082000,00007fbebd97e000,0000000000000000,20,1,0,7
267,267,0,1,88082000,00007fbebd97e000,0000000000000000,20,1,0,8
268,268,0,1,88082000,00007fbebd97e000,0000000000000000,20,1,0,9
269,269,0,1,88082000,00007fbebd97e000,0000000000000000,20,1,0,a
270,270,0,1,88082000,00007fbebd97e000,0000000000000000,20,1,0,b
271,271,0,1,88082000,00007fbebd97e000,0000000000000000,20,1,0,c
272,272,0,1,88082000,00007fbebd97e000,0000000000000000,20,1,0,d
273,273,0,1,88082000,00007fbebd97e000,0000000000000000,20,1,0,e
274,274,0,1,88082000,00007fbebd97e000,0000000000000000,20,1,0,f
275,275,0,1,88082000,00007fbebd97e000,0000000000000000,20,1,0,0
276,276,0,1,88082000,00007fbebd97e000,00007fbebdb7f000,20,1,0,1
277,277,0,1,88082000,00007fbebd97e000,00007fbebd97e000,20,1,0,2
278,278,0,1,88082000,00007fbebd97e000,0000000000000000,20,1,0,3
279,279,0,1,88082000,00007fbebd97e000,0000000000000000,20,1,0,4
280,280,0,1,88082000,00007fbebd97e000,0000000000000000,20,1,0,5
281,281,0,1,88082000,00007fbebd97e000,0000000000000000,20,1,0,6
282,282,0,1,88082000,00007fbebd97e000,0000000000000000,20,1,0,7
283,283,0,1,88082000,00007fbebd97e000,0000000000000000,20,1,0,8
284,284,0,1,88082000,00007fbebd97e000,0000000000000000,20,1,0,9
285,285,0,1,88082000,00007fbebd97e000,0000000000000000,20,1,0,a
286,286,0,1,88082000,00007fbebd97e000,0000000000000000,20,1,0,b
287,287,0,1,88082000,00007fbebd97e000,0000000000000000,20,1,0,c
288,288,0,1,88082000,00007fbebd97e000,0000000000000000,20,1,0,d
289,289,0,1,88082000,00007fbebd97e000,0000000000000000,20,1,0,e
290,290,0,1,88082000,00007fbebd97e000,0000000000000000,20,1,0,f
291,291,0,1,88082000,00007fbebd97e000,0000000000000000,20,1,0,0
292,292,0,1,88082000,00007fbebd97e000,00007fbebdb7f000,20,1,0,1
293,293,0,1,88082000,00007fbebd97e000,00007fbebd97e000,20,1,0,2
294,294,0,1,88082000,00007fbebd97e000,0000000000000000,20,1,0,3
295,295,0,1,88082000,00007fbebd97e000,0000000000000000,20,1,0,4
296,296,0,1,88082000,00007fbebd97e000,0000000000000000,20,1,0,5
297,297,0,1,88082000,00007fbebd97e000,0000000000000000,20,1,0,6
298,298,0,1,88082000,00007fbebd97e000,0000000000000000,20,1,0,7
299,299,0,1,88082000,00007fbebd97e000,0000000000000000,20,1,0,8
300,300,0,1,88082000,00007fbebd97e000,0000000000000000,20,1,0,9
301,301,0,1,88082000,00007fbebd97e000,0000000000000000,20,1,0,a
302,302,0,1,88082000,00007fbebd97e000,0000000000000000,20,1,0,b
303,303,0,1,88082000,00007fbebd97e000,0000000000000000,20,1,0,c
304,304,0,1,88082000,00007fbebd97e000,0000000000000000,20,1,0,d
305,305,0,1,88082000,00007fbebd97e000,0000000000000000,20,1,0,e
306,306,0,1,88082000,00007fbebd97e000,0000000000000000,20,1,0,f
307,307,0,1,88082000,00007fbebd97e000,0000000000000000,20,1,0,0
308,308,0,1,88082000,00007fbebd97e000,00007fbebdb7f000,20,1,0,1
309,309,0,1,88082000,00007fbebd97e000,00007fbebd97e000,20,1,0,2
